T1444 1578:536.014   SEGGER J-Link V6.86e Log File
T1444 1578:536.076   DLL Compiled: Oct 16 2020 17:22:26
T1444 1578:536.085   Logging started @ 2024-01-12 12:23
T1444 1578:536.092 - 372.360ms
T1444 1578:536.104 JLINK_SetWarnOutHandler(...)
T1444 1578:536.112 - 0.012ms
T1444 1578:536.122 JLINK_OpenEx(...)
T1444 1578:537.594   Firmware: J-Link V9 compiled May  7 2021 16:26:12
T1444 1578:537.760   Decompressing FW timestamp took 136 us
T1444 1578:544.071   Hardware: V9.70
T1444 1578:544.091   S/N: 150711752
T1444 1578:544.101   OEM: SEGGER
T1444 1578:544.112   Feature(s): GDB, RDI, FlashBP, FlashDL, JFlash
T1444 1578:545.090   TELNET listener socket opened on port 19021
T1444 1578:548.472   Device "CORTEX-M4" selected.
T1444 1578:549.957   WEBSRV Starting webserver
T1444 1578:550.145   WEBSRV Webserver running on local port 19080
T1444 1578:550.160 - 14.041ms returns "O.K."
T1444 1578:550.479 JLINK_GetEmuCaps()
T1444 1578:550.493 - 0.017ms returns 0xB9FF7BBF
T1444 1578:550.506 JLINK_TIF_GetAvailable(...)
T1444 1578:550.623 - 0.127ms
T1444 1578:550.643 JLINK_SetErrorOutHandler(...)
T1444 1578:550.651 - 0.011ms
T1444 1578:550.664 JLINK_ExecCommand("ProjectFile = "C:\Users\95309\Desktop\20240112_添加四通道的版本_成功运行\addon_mdk\Boards\NXP\S32K144-EVB\RTX5_Blinky\JLinkSettings.ini"", ...). 
T1444 1578:551.489   Device "CORTEX-M4" selected.
T1444 1578:551.908 - 1.250ms returns 0x00
T1444 1578:551.931 JLINK_ExecCommand("Device = S32K144HFxxxLHx", ...). 
T1444 1578:552.118   Device "CORTEX-M4" selected.
T1444 1578:552.540 - 0.605ms returns 0x00
T1444 1578:552.562 JLINK_GetHardwareVersion()
T1444 1578:552.570 - 0.011ms returns 97000
T1444 1578:552.580 JLINK_GetDLLVersion()
T1444 1578:552.587 - 0.010ms returns 68605
T1444 1578:552.596 JLINK_GetOEMString(...)
T1444 1578:552.605 JLINK_GetFirmwareString(...)
T1444 1578:552.612 - 0.010ms
T1444 1578:552.634 JLINK_GetDLLVersion()
T1444 1578:552.642 - 0.011ms returns 68605
T1444 1578:552.651 JLINK_GetCompileDateTime()
T1444 1578:552.658 - 0.010ms
T1444 1578:552.671 JLINK_GetFirmwareString(...)
T1444 1578:552.678 - 0.010ms
T1444 1578:552.690 JLINK_GetHardwareVersion()
T1444 1578:552.697 - 0.010ms returns 97000
T1444 1578:552.710 JLINK_GetSN()
T1444 1578:552.718 - 0.011ms returns 150711752
T1444 1578:552.730 JLINK_GetOEMString(...)
T1444 1578:552.748 JLINK_TIF_Select(JLINKARM_TIF_SWD)
T1444 1578:553.192 - 0.452ms returns 0x00
T1444 1578:553.210 JLINK_HasError()
T1444 1578:553.221 JLINK_SetSpeed(1000)
T1444 1578:553.330 - 0.116ms
T1444 1578:553.346 JLINK_GetId()
T1444 1578:554.213   Found SW-DP with ID 0x2BA01477
T1444 1578:557.060   DPIDR: 0x2BA01477
T1444 1578:557.087   Scanning AP map to find all available APs
T1444 1578:558.032   AP[2]: Stopped AP scan as end of AP map has been reached
T1444 1578:558.051   AP[0]: AHB-AP (IDR: 0x24770011)
T1444 1578:558.065   AP[1]: JTAG-AP (IDR: 0x001C0000)
T1444 1578:558.079   Iterating through AP map to find AHB-AP to use
T1444 1578:559.229   AP[0]: Core found
T1444 1578:559.247   AP[0]: AHB-AP ROM base: 0xE00FF000
T1444 1578:559.904   CPUID register: 0x410FC241. Implementer code: 0x41 (ARM)
T1444 1578:559.922   Found Cortex-M4 r0p1, Little endian.
T1444 1578:661.498   -- Max. mem block: 0x00005810
T1444 1578:661.541   CPU_ReadMem(4 bytes @ 0xE000EDF0)
T1444 1578:662.800   CPU_WriteMem(4 bytes @ 0xE000EDF0)
T1444 1578:663.863   CPU_ReadMem(4 bytes @ 0xE0002000)
T1444 1578:664.804   FPUnit: 6 code (BP) slots and 2 literal slots
T1444 1578:664.837   CPU_ReadMem(4 bytes @ 0xE000EDFC)
T1444 1578:665.411   CPU_WriteMem(4 bytes @ 0xE000EDFC)
T1444 1578:666.078   CPU_ReadMem(4 bytes @ 0xE0001000)
T1444 1578:666.820   CPU_WriteMem(4 bytes @ 0xE0001000)
T1444 1578:667.706   CPU_ReadMem(4 bytes @ 0xE000ED88)
T1444 1578:668.573   CPU_WriteMem(4 bytes @ 0xE000ED88)
T1444 1578:669.433   CPU_ReadMem(4 bytes @ 0xE000ED88)
T1444 1578:670.295   CPU_WriteMem(4 bytes @ 0xE000ED88)
T1444 1578:671.207   CoreSight components:
T1444 1578:671.241   ROMTbl[0] @ E00FF000
T1444 1578:671.260   CPU_ReadMem(64 bytes @ 0xE00FF000)
T1444 1578:672.802   CPU_ReadMem(32 bytes @ 0xE000EFE0)
T1444 1578:673.831   ROMTbl[0][0]: E000E000, CID: B105E00D, PID: 000BB00C SCS-M7
T1444 1578:673.859   CPU_ReadMem(32 bytes @ 0xE0001FE0)
T1444 1578:674.879   ROMTbl[0][1]: E0001000, CID: B105E00D, PID: 003BB002 DWT
T1444 1578:674.907   CPU_ReadMem(32 bytes @ 0xE0002FE0)
T1444 1578:676.018   ROMTbl[0][2]: E0002000, CID: B105E00D, PID: 002BB003 FPB
T1444 1578:676.034   CPU_ReadMem(32 bytes @ 0xE0000FE0)
T1444 1578:677.033   ROMTbl[0][3]: E0000000, CID: B105E00D, PID: 003BB001 ITM
T1444 1578:677.049   CPU_ReadMem(32 bytes @ 0xE0040FE0)
T1444 1578:678.094   ROMTbl[0][4]: E0040000, CID: B105900D, PID: 000BB9A1 TPIU
T1444 1578:678.451 - 125.113ms returns 0x2BA01477
T1444 1578:678.471 JLINK_GetDLLVersion()
T1444 1578:678.478 - 0.010ms returns 68605
T1444 1578:678.491 JLINK_CORE_GetFound()
T1444 1578:678.498 - 0.010ms returns 0xE0000FF
T1444 1578:678.508 JLINK_GetDebugInfo(0x100 = JLINKARM_ROM_TABLE_ADDR_INDEX)
T1444 1578:678.516   Value=0xE00FF000
T1444 1578:678.526 - 0.021ms returns 0
T1444 1578:678.544 JLINK_GetDebugInfo(0x100 = JLINKARM_ROM_TABLE_ADDR_INDEX)
T1444 1578:678.551   Value=0xE00FF000
T1444 1578:678.562 - 0.021ms returns 0
T1444 1578:678.599 JLINK_GetDebugInfo(0x101 = JLINKARM_DEBUG_INFO_ETM_ADDR_INDEX)
T1444 1578:678.606   Value=0x00000000
T1444 1578:678.632 - 0.036ms returns 0
T1444 1578:678.643 JLINK_ReadMemEx(0xE0041FF0, 0x10 Bytes, Flags = 0x02000004)
T1444 1578:678.691   CPU_ReadMem(16 bytes @ 0xE0041FF0)
T1444 1578:679.629   Data:  00 00 00 00 00 00 00 00 00 00 00 00 00 00 00 00
T1444 1578:679.645 - 1.005ms returns 16 (0x10)
T1444 1578:679.657 JLINK_GetDebugInfo(0x102 = JLINKARM_DEBUG_INFO_MTB_ADDR_INDEX)
T1444 1578:679.665   Value=0x00000000
T1444 1578:679.675 - 0.021ms returns 0
T1444 1578:679.684 JLINK_GetDebugInfo(0x103 = JLINKARM_DEBUG_INFO_TPIU_ADDR_INDEX)
T1444 1578:679.691   Value=0xE0040000
T1444 1578:679.700 - 0.020ms returns 0
T1444 1578:679.710 JLINK_GetDebugInfo(0x104 = JLINKARM_DEBUG_INFO_ITM_ADDR_INDEX)
T1444 1578:679.717   Value=0xE0000000
T1444 1578:679.727 - 0.020ms returns 0
T1444 1578:679.735 JLINK_GetDebugInfo(0x105 = JLINKARM_DEBUG_INFO_DWT_ADDR_INDEX)
T1444 1578:679.742   Value=0xE0001000
T1444 1578:679.752 - 0.020ms returns 0
T1444 1578:679.761 JLINK_GetDebugInfo(0x106 = JLINKARM_DEBUG_INFO_FPB_ADDR_INDEX)
T1444 1578:679.768   Value=0xE0002000
T1444 1578:679.778 - 0.020ms returns 0
T1444 1578:679.787 JLINK_GetDebugInfo(0x107 = JLINKARM_DEBUG_INFO_NVIC_ADDR_INDEX)
T1444 1578:679.794   Value=0xE000E000
T1444 1578:679.804 - 0.020ms returns 0
T1444 1578:679.812 JLINK_GetDebugInfo(0x10C = JLINKARM_DEBUG_INFO_DBG_ADDR_INDEX)
T1444 1578:679.819   Value=0xE000EDF0
T1444 1578:679.829 - 0.020ms returns 0
T1444 1578:679.838 JLINK_GetDebugInfo(0x01 = Unknown)
T1444 1578:679.846   Value=0x00000001
T1444 1578:679.855 - 0.020ms returns 0
T1444 1578:679.867 JLINK_ReadMemU32(0xE000ED00, 0x1 Items)
T1444 1578:679.877   CPU_ReadMem(4 bytes @ 0xE000ED00)
T1444 1578:680.513   Data:  41 C2 0F 41
T1444 1578:680.529   Debug reg: CPUID
T1444 1578:680.539 - 0.676ms returns 1 (0x1)
T1444 1578:680.551 JLINK_GetDebugInfo(0x10F = JLINKARM_DEBUG_INFO_HAS_CORTEX_M_SECURITY_EXT_INDEX)
T1444 1578:680.569   Value=0x00000000
T1444 1578:680.580 - 0.031ms returns 0
T1444 1578:680.617 JLINK_HasError()
T1444 1578:680.630 JLINK_SetResetType(JLINKARM_CM3_RESET_TYPE_NORMAL)
T1444 1578:680.654 - 0.028ms returns JLINKARM_CM3_RESET_TYPE_NORMAL
T1444 1578:680.665 JLINK_Reset()
T1444 1578:680.676   CPU is running
T1444 1578:680.687   CPU_WriteMem(4 bytes @ 0xE000EDF0)
T1444 1578:681.338   CPU is running
T1444 1578:681.354   CPU_WriteMem(4 bytes @ 0xE000EDFC)
T1444 1578:682.007   Reset: Halt core after reset via DEMCR.VC_CORERESET.
T1444 1578:682.403   Reset: Reset device via AIRCR.SYSRESETREQ.
T1444 1578:682.421   CPU is running
T1444 1578:682.433   CPU_WriteMem(4 bytes @ 0xE000ED0C)
T1444 1578:735.357   CPU_ReadMem(4 bytes @ 0xE000EDF0)
T1444 1578:736.239   CPU_ReadMem(4 bytes @ 0xE000EDF0)
T1444 1578:737.105   CPU is running
T1444 1578:737.148   CPU_WriteMem(4 bytes @ 0xE000EDF0)
T1444 1578:737.976   CPU is running
T1444 1578:738.018   CPU_WriteMem(4 bytes @ 0xE000EDFC)
T1444 1578:744.771   CPU_ReadMem(4 bytes @ 0xE000EDF0)
T1444 1578:751.821   CPU_WriteMem(4 bytes @ 0xE0002000)
T1444 1578:752.667   CPU_ReadMem(4 bytes @ 0xE000EDFC)
T1444 1578:753.512   CPU_ReadMem(4 bytes @ 0xE0001000)
T1444 1578:754.325 - 73.688ms
T1444 1578:754.405 JLINK_HasError()
T1444 1578:754.432 JLINK_ReadReg(R15 (PC))
T1444 1578:754.450 - 0.023ms returns 0x00008B70
T1444 1578:754.467 JLINK_ReadReg(XPSR)
T1444 1578:754.480 - 0.018ms returns 0x01000000
T1444 1578:754.497 JLINK_Halt()
T1444 1578:754.509 - 0.018ms returns 0x00
T1444 1578:754.526 JLINK_ReadMemU32(0xE000EDF0, 0x1 Items)
T1444 1578:754.545   CPU_ReadMem(4 bytes @ 0xE000EDF0)
T1444 1578:755.340   Data:  03 00 03 00
T1444 1578:755.381   Debug reg: DHCSR
T1444 1578:755.399 - 0.879ms returns 1 (0x1)
T1444 1578:755.432 JLINK_WriteU32_64(0xE000EDF0, 0xA05F0003)
T1444 1578:755.446   Debug reg: DHCSR
T1444 1578:755.478   CPU_WriteMem(4 bytes @ 0xE000EDF0)
T1444 1578:756.287 - 0.883ms returns 0 (0x00000000)
T1444 1578:756.338 JLINK_WriteU32_64(0xE000EDFC, 0x01000000)
T1444 1578:756.353   Debug reg: DEMCR
T1444 1578:756.384   CPU_WriteMem(4 bytes @ 0xE000EDFC)
T1444 1578:757.249 - 0.938ms returns 0 (0x00000000)
T1444 1578:757.444 JLINK_GetHWStatus(...)
T1444 1578:757.700 - 0.273ms returns 0
T1444 1578:757.766 JLINK_GetNumBPUnits(Type = 0xFFFFFF00)
T1444 1578:757.782 - 0.022ms returns 0x06
T1444 1578:757.797 JLINK_GetNumBPUnits(Type = 0xF0)
T1444 1578:757.809 - 0.017ms returns 0x2000
T1444 1578:757.825 JLINK_GetNumWPUnits()
T1444 1578:757.837 - 0.017ms returns 4
T1444 1578:757.868 JLINK_GetSpeed()
T1444 1578:757.881 - 0.018ms returns 1000
T1444 1578:757.906 JLINK_ReadMemU32(0xE000E004, 0x1 Items)
T1444 1578:757.927   CPU_ReadMem(4 bytes @ 0xE000E004)
T1444 1578:758.629   Data:  04 00 00 00
T1444 1578:758.658 - 0.758ms returns 1 (0x1)
T1444 1578:758.678 JLINK_ReadMemU32(0xE000E004, 0x1 Items)
T1444 1578:758.696   CPU_ReadMem(4 bytes @ 0xE000E004)
T1444 1578:759.378   Data:  04 00 00 00
T1444 1578:759.405 - 0.733ms returns 1 (0x1)
T1444 1578:759.428 JLINK_WriteMemEx(0xE0001000, 0x0000001C Bytes, Flags = 0x02000004)
T1444 1578:759.442   Data:  01 00 00 00 00 00 00 00 00 00 00 00 00 00 00 00 ...
T1444 1578:759.754   CPU_WriteMem(28 bytes @ 0xE0001000)
T1444 1578:760.749 - 1.339ms returns 0x1C
T1444 1578:760.799 JLINK_HasError()
T1444 1578:760.817 JLINK_ReadReg(R15 (PC))
T1444 1578:760.833 - 0.021ms returns 0x00008B70
T1444 1578:760.848 JLINK_ReadReg(XPSR)
T1444 1578:760.861 - 0.018ms returns 0x01000000
T1444 1578:765.379 JLINK_SWO_Control(JLINKARM_SWO_CMD_GET_SPEED_INFO, ...)
T1444 1578:765.653 - 0.281ms returns 0x00
T1444 1578:765.668 JLINK_SWO_Control(JLINKARM_SWO_CMD_STOP, ...)
T1444 1578:765.677 - 0.012ms returns 0x00
T1444 1578:765.686 JLINK_SWO_Control(JLINKARM_SWO_CMD_START, ...)
T1444 1578:765.908    -- UART
T1444 1578:765.922    -- 5000000bps
T1444 1578:766.551 - 0.872ms returns 0x00
T1444 1578:766.566 JLINK_WriteU32_64(0xE0040004, 0x00000001)
T1444 1578:766.574   Debug reg: TPIU_CSPSR
T1444 1578:766.610   CPU_WriteMem(4 bytes @ 0xE0040004)
T1444 1578:767.379 - 0.847ms returns 0 (0x00000000)
T1444 1578:767.447 JLINK_WriteU32_64(0xE0040010, 0x00000001)
T1444 1578:767.485   Debug reg: TPIU_ACPR
T1444 1578:767.548 - 0.118ms returns 0 (0x00000000)
T1444 1578:767.599 JLINK_WriteU32_64(0xE00400F0, 0x00000002)
T1444 1578:767.634   Debug reg: TPIU_SPPR
T1444 1578:767.645 - 0.050ms returns 0 (0x00000000)
T1444 1578:767.654 JLINK_WriteU32_64(0xE0040304, 0x00000000)
T1444 1578:767.661   Debug reg: TPIU_FFCR
T1444 1578:767.672 - 0.021ms returns 0 (0x00000000)
T1444 1578:767.681 JLINK_WriteU32_64(0xE0000FB0, 0xC5ACCE55)
T1444 1578:767.688   Debug reg: ITM_LOCKACCESS
T1444 1578:767.700   CPU_WriteMem(4 bytes @ 0xE0000FB0)
T1444 1578:768.436 - 0.789ms returns 0 (0x00000000)
T1444 1578:768.504 JLINK_WriteU32_64(0xE0000E80, 0x0001000D)
T1444 1578:768.550   Debug reg: ITM_TCR
T1444 1578:768.625 - 0.139ms returns 0 (0x00000000)
T1444 1578:768.685 JLINK_WriteU32_64(0xE0000E00, 0xFFFFFFFF)
T1444 1578:768.692   Debug reg: ITM_TER
T1444 1578:768.725 - 0.059ms returns 0 (0x00000000)
T1444 1578:768.734 JLINK_WriteU32_64(0xE0000E40, 0x00000008)
T1444 1578:768.741   Debug reg: ITM_TPR
T1444 1578:768.765 - 0.035ms returns 0 (0x00000000)
T1444 1578:768.774 JLINK_WriteU32_64(0xE0001000, 0x0001061F)
T1444 1578:768.781   Debug reg: DWT_CTRL
T1444 1578:768.791 - 0.021ms returns 0 (0x00000000)
T1444 1578:811.507 JLINK_WriteMemEx(0x00000000, 0x00000004 Bytes, Flags = 0x02000000)
T1444 1578:811.547   Data:  00 70 00 20
T1444 1578:811.568   CPU_WriteMem(4 bytes @ 0x00000000)
T1444 1578:812.314 - 0.843ms returns 0x4
T1444 1578:812.839 JLINK_WriteMemEx(0x00000004, 0x00000004 Bytes, Flags = 0x02000000)
T1444 1578:812.850   Data:  71 8B 00 00
T1444 1578:812.864   CPU_WriteMem(4 bytes @ 0x00000004)
T1444 1578:813.607 - 0.802ms returns 0x4
T1444 1578:814.059 JLINK_WriteMemEx(0x00008000, 0x00000400 Bytes, Flags = 0x02000000)
T1444 1578:814.070   Data:  00 70 00 20 71 8B 00 00 83 8B 00 00 85 8B 00 00 ...
T1444 1578:814.364   CPU_WriteMem(1024 bytes @ 0x00008000)
T1444 1578:816.141 - 2.091ms returns 0xFFFFFFFF
T1444 1578:873.299 JLINK_HasError()
T1444 1578:873.325 JLINK_SetResetType(JLINKARM_CM3_RESET_TYPE_NORMAL)
T1444 1578:873.334 - 0.011ms returns JLINKARM_CM3_RESET_TYPE_NORMAL
T1444 1578:873.343 JLINK_Reset()
T1444 1578:873.356   CPU_WriteMem(4 bytes @ 0xE0000E00)
T1444 1578:873.369   CPU_WriteMem(4 bytes @ 0xE0000E40)
T1444 1578:873.379   CPU_WriteMem(4 bytes @ 0xE0000E80)
T1444 1578:873.390   CPU_WriteMem(4 bytes @ 0xE0001000)
T1444 1578:873.400   CPU_WriteMem(4 bytes @ 0xE0040010)
T1444 1578:873.411   CPU_WriteMem(4 bytes @ 0xE00400F0)
T1444 1578:873.422   CPU_WriteMem(4 bytes @ 0xE0040304)
T1444 1578:876.289   CPU_WriteMem(4 bytes @ 0xE000EDF0)
T1444 1578:877.188   CPU_WriteMem(4 bytes @ 0xE000EDFC)
T1444 1578:877.848   Reset: Halt core after reset via DEMCR.VC_CORERESET.
T1444 1578:878.512   Reset: Reset device via AIRCR.SYSRESETREQ.
T1444 1578:878.529   CPU_WriteMem(4 bytes @ 0xE000ED0C)
T1444 1578:932.237   CPU_ReadMem(4 bytes @ 0xE000EDF0)
T1444 1578:932.916   CPU_ReadMem(4 bytes @ 0xE000EDF0)
T1444 1578:933.522   CPU_WriteMem(4 bytes @ 0xE000EDF0)
T1444 1578:934.077   CPU_WriteMem(4 bytes @ 0xE000EDFC)
T1444 1578:940.475   CPU_ReadMem(4 bytes @ 0xE000EDF0)
T1444 1578:947.869   CPU_WriteMem(4 bytes @ 0xE0002000)
T1444 1578:948.800   CPU_ReadMem(4 bytes @ 0xE000EDFC)
T1444 1578:949.392   CPU_ReadMem(4 bytes @ 0xE0001000)
T1444 1578:950.169 - 76.837ms
T1444 1578:950.195 JLINK_WriteU32_64(0xE000EDFC, 0x01000000)
T1444 1578:950.205   Debug reg: DEMCR
T1444 1578:950.228   CPU_WriteMem(4 bytes @ 0xE000EDFC)
T1444 1578:950.936 - 0.754ms returns 0 (0x00000000)
T1444 1578:951.328 JLINK_HasError()
T1444 1578:951.352 JLINK_ReadReg(R15 (PC))
T1444 1578:951.365 - 0.018ms returns 0x00008B70
T1444 1578:951.378 JLINK_ReadReg(XPSR)
T1444 1578:951.387 - 0.014ms returns 0x01000000
T1444 1578:958.581 JLINK_ReadMemEx(0x00008B70, 0x3C Bytes, Flags = 0x02000000)
T1444 1578:958.610   CPU_ReadMem(60 bytes @ 0x00008B70)
T1444 1578:960.083   Data:  09 48 72 B6 09 48 80 47 09 48 80 47 62 B6 09 48 ...
T1444 1578:960.104 - 1.527ms returns 60 (0x3C)
T1444 1579:077.816 JLINK_WriteU32_64(0xE0001008, 0x00000000)
T1444 1579:077.840   Debug reg: DWT_CPICNT
T1444 1579:077.859 - 0.047ms returns 0 (0x00000000)
T1444 1579:077.870 JLINK_WriteU32_64(0xE000100C, 0x00000000)
T1444 1579:077.877   Debug reg: DWT_EXCCNT
T1444 1579:077.888 - 0.022ms returns 0 (0x00000000)
T1444 1579:077.897 JLINK_WriteU32_64(0xE0001010, 0x00000000)
T1444 1579:077.905   Debug reg: DWT_SLEEPCNT
T1444 1579:077.915 - 0.021ms returns 0 (0x00000000)
T1444 1579:077.924 JLINK_WriteU32_64(0xE0001014, 0x00000000)
T1444 1579:077.932   Debug reg: DWT_LSUCNT
T1444 1579:077.942 - 0.021ms returns 0 (0x00000000)
T1444 1579:077.951 JLINK_WriteU32_64(0xE0001018, 0x00000000)
T1444 1579:078.011   Debug reg: DWT_FOLDCNT
T1444 1579:078.027 - 0.079ms returns 0 (0x00000000)
T1444 1579:130.789 JLINK_ReadMemEx(0x40008000, 0x4 Bytes, Flags = 0x02000004)
T1444 1579:130.822   CPU_ReadMem(4 bytes @ 0x40008000)
T1444 1579:131.517   Data:  00 00 00 00
T1444 1579:131.540 - 0.754ms returns 4 (0x4)
T1444 1579:131.555 JLINK_ReadMemEx(0x40008000, 0x4 Bytes, Flags = 0x02000004)
T1444 1579:131.567   CPU_ReadMem(4 bytes @ 0x40008000)
T1444 1579:132.128   Data:  00 00 00 00
T1444 1579:132.156 - 0.604ms returns 4 (0x4)
T1444 1579:132.177 JLINK_ReadMemEx(0x40008004, 0x4 Bytes, Flags = 0x02000004)
T1444 1579:132.191   CPU_ReadMem(4 bytes @ 0x40008004)
T1444 1579:132.749   Data:  00 00 00 00
T1444 1579:132.777 - 0.604ms returns 4 (0x4)
T1444 1579:132.796 JLINK_ReadMemEx(0x40008004, 0x4 Bytes, Flags = 0x02000004)
T1444 1579:132.811   CPU_ReadMem(4 bytes @ 0x40008004)
T1444 1579:133.486   Data:  00 00 00 00
T1444 1579:133.512 - 0.720ms returns 4 (0x4)
T1444 1579:133.531 JLINK_ReadMemEx(0x4000800C, 0x4 Bytes, Flags = 0x02000004)
T1444 1579:133.545   CPU_ReadMem(4 bytes @ 0x4000800C)
T1444 1579:134.557   Data:  00 00 00 00
T1444 1579:134.629 - 1.104ms returns 4 (0x4)
T1444 1579:134.660 JLINK_ReadMemEx(0x4000800C, 0x4 Bytes, Flags = 0x02000004)
T1444 1579:134.681   CPU_ReadMem(4 bytes @ 0x4000800C)
T1444 1579:135.351   Data:  00 00 00 00
T1444 1579:135.377 - 0.720ms returns 4 (0x4)
T1444 1579:135.397 JLINK_ReadMemEx(0x40008014, 0x4 Bytes, Flags = 0x02000004)
T1444 1579:135.410   CPU_ReadMem(4 bytes @ 0x40008014)
T1444 1579:135.965   Data:  00 00 00 00
T1444 1579:135.981 - 0.588ms returns 4 (0x4)
T1444 1579:135.995 JLINK_ReadMemEx(0x40008014, 0x4 Bytes, Flags = 0x02000004)
T1444 1579:136.006   CPU_ReadMem(4 bytes @ 0x40008014)
T1444 1579:136.925   Data:  00 00 00 00
T1444 1579:136.939 - 0.947ms returns 4 (0x4)
T1444 1579:136.953 JLINK_ReadMemEx(0x40008024, 0x4 Bytes, Flags = 0x02000004)
T1444 1579:136.963   CPU_ReadMem(4 bytes @ 0x40008024)
T1444 1579:137.756   Data:  00 00 00 00
T1444 1579:137.770 - 0.820ms returns 4 (0x4)
T1444 1579:137.783 JLINK_ReadMemEx(0x40008024, 0x4 Bytes, Flags = 0x02000004)
T1444 1579:137.793   CPU_ReadMem(4 bytes @ 0x40008024)
T1444 1579:138.781   Data:  00 00 00 00
T1444 1579:138.795 - 1.015ms returns 4 (0x4)
T1444 1579:138.808 JLINK_ReadMemEx(0x4000802C, 0x4 Bytes, Flags = 0x02000004)
T1444 1579:138.818   CPU_ReadMem(4 bytes @ 0x4000802C)
T1444 1579:139.755   Data:  00 00 00 00
T1444 1579:139.770 - 0.965ms returns 4 (0x4)
T1444 1579:139.782 JLINK_ReadMemEx(0x4000802C, 0x4 Bytes, Flags = 0x02000004)
T1444 1579:139.792   CPU_ReadMem(4 bytes @ 0x4000802C)
T1444 1579:140.775   Data:  00 00 00 00
T1444 1579:140.789 - 1.010ms returns 4 (0x4)
T1444 1579:140.802 JLINK_ReadMemEx(0x40008034, 0x4 Bytes, Flags = 0x02000004)
T1444 1579:140.811   CPU_ReadMem(4 bytes @ 0x40008034)
T1444 1579:141.744   Data:  00 00 00 00
T1444 1579:141.758 - 0.960ms returns 4 (0x4)
T1444 1579:141.771 JLINK_ReadMemEx(0x40008034, 0x4 Bytes, Flags = 0x02000004)
T1444 1579:141.780   CPU_ReadMem(4 bytes @ 0x40008034)
T1444 1579:142.768   Data:  00 00 00 00
T1444 1579:142.782 - 1.015ms returns 4 (0x4)
T1444 1579:142.795 JLINK_ReadMemEx(0x40008044, 0x4 Bytes, Flags = 0x02000004)
T1444 1579:142.805   CPU_ReadMem(4 bytes @ 0x40008044)
T1444 1579:143.653   Data:  00 00 00 00
T1444 1579:143.667 - 0.875ms returns 4 (0x4)
T1444 1579:143.680 JLINK_ReadMemEx(0x40008044, 0x4 Bytes, Flags = 0x02000004)
T1444 1579:143.690   CPU_ReadMem(4 bytes @ 0x40008044)
T1444 1579:144.745   Data:  00 00 00 00
T1444 1579:144.759 - 1.082ms returns 4 (0x4)
T1444 1579:144.786 JLINK_ReadMemEx(0x40009000, 0x4 Bytes, Flags = 0x02000004)
T1444 1579:144.796   CPU_ReadMem(4 bytes @ 0x40009000)
T1444 1579:145.760   Data:  04 9A FF 1F
T1444 1579:145.774 - 0.991ms returns 4 (0x4)
T1444 1579:145.787 JLINK_ReadMemEx(0x40009000, 0x4 Bytes, Flags = 0x02000004)
T1444 1579:145.797   CPU_ReadMem(4 bytes @ 0x40009000)
T1444 1579:146.740   Data:  04 9A FF 1F
T1444 1579:146.754 - 0.974ms returns 4 (0x4)
T1444 1579:146.775 JLINK_ReadMemEx(0x40009008, 0x8 Bytes, Flags = 0x02000004)
T1444 1579:146.785   CPU_ReadMem(8 bytes @ 0x40009008)
T1444 1579:147.715   Data:  02 00 00 00 60 F0 FF FF
T1444 1579:147.729 - 0.957ms returns 8 (0x8)
T1444 1579:147.741 JLINK_ReadMemEx(0x40009008, 0x4 Bytes, Flags = 0x02000004)
T1444 1579:147.751   CPU_ReadMem(4 bytes @ 0x40009008)
T1444 1579:148.793   Data:  02 00 00 00
T1444 1579:148.807 - 1.069ms returns 4 (0x4)
T1444 1579:148.820 JLINK_ReadMemEx(0x4000900C, 0x4 Bytes, Flags = 0x02000004)
T1444 1579:148.830   CPU_ReadMem(4 bytes @ 0x4000900C)
T1444 1579:149.728   Data:  60 F0 FF FF
T1444 1579:149.742 - 0.925ms returns 4 (0x4)
T1444 1579:149.755 JLINK_ReadMemEx(0x40009010, 0x4 Bytes, Flags = 0x02000004)
T1444 1579:149.764   CPU_ReadMem(4 bytes @ 0x40009010)
T1444 1579:150.335   Data:  48 80 03 40
T1444 1579:150.351 - 0.600ms returns 4 (0x4)
T1444 1579:150.366 JLINK_ReadMemEx(0x40009010, 0x4 Bytes, Flags = 0x02000004)
T1444 1579:150.377   CPU_ReadMem(4 bytes @ 0x40009010)
T1444 1579:150.987   Data:  48 80 03 40
T1444 1579:151.003 - 0.641ms returns 4 (0x4)
T1444 1579:151.265 JLINK_ReadMemEx(0x40009018, 0x4 Bytes, Flags = 0x02000004)
T1444 1579:151.279   CPU_ReadMem(4 bytes @ 0x40009018)
T1444 1579:151.858   Data:  00 00 00 00
T1444 1579:151.931 - 0.670ms returns 4 (0x4)
T1444 1579:151.943 JLINK_ReadMemEx(0x40009018, 0x4 Bytes, Flags = 0x02000004)
T1444 1579:151.952   CPU_ReadMem(4 bytes @ 0x40009018)
T1444 1579:152.489   Data:  00 00 00 00
T1444 1579:152.532 - 0.593ms returns 4 (0x4)
T1444 1579:152.546 JLINK_ReadMemEx(0x40009020, 0x4 Bytes, Flags = 0x02000004)
T1444 1579:152.555   CPU_ReadMem(4 bytes @ 0x40009020)
T1444 1579:153.096   Data:  AE A9 FF 1F
T1444 1579:153.154 - 0.611ms returns 4 (0x4)
T1444 1579:153.165 JLINK_ReadMemEx(0x40009020, 0x4 Bytes, Flags = 0x02000004)
T1444 1579:153.175   CPU_ReadMem(4 bytes @ 0x40009020)
T1444 1579:153.725   Data:  AE A9 FF 1F
T1444 1579:153.784 - 0.622ms returns 4 (0x4)
T1444 1579:153.799 JLINK_ReadMemEx(0x40009028, 0x8 Bytes, Flags = 0x02000004)
T1444 1579:153.809   CPU_ReadMem(8 bytes @ 0x40009028)
T1444 1579:154.325   Data:  02 00 00 00 60 F0 FF FF
T1444 1579:154.339 - 0.542ms returns 8 (0x8)
T1444 1579:154.351 JLINK_ReadMemEx(0x40009028, 0x4 Bytes, Flags = 0x02000004)
T1444 1579:154.361   CPU_ReadMem(4 bytes @ 0x40009028)
T1444 1579:154.875   Data:  02 00 00 00
T1444 1579:154.941 - 0.592ms returns 4 (0x4)
T1444 1579:154.953 JLINK_ReadMemEx(0x4000902C, 0x4 Bytes, Flags = 0x02000004)
T1444 1579:154.963   CPU_ReadMem(4 bytes @ 0x4000902C)
T1444 1579:155.472   Data:  60 F0 FF FF
T1444 1579:155.532 - 0.582ms returns 4 (0x4)
T1444 1579:155.545 JLINK_ReadMemEx(0x40009030, 0x4 Bytes, Flags = 0x02000004)
T1444 1579:155.555   CPU_ReadMem(4 bytes @ 0x40009030)
T1444 1579:156.071   Data:  18 90 03 40
T1444 1579:156.125 - 0.584ms returns 4 (0x4)
T1444 1579:156.138 JLINK_ReadMemEx(0x40009030, 0x4 Bytes, Flags = 0x02000004)
T1444 1579:156.148   CPU_ReadMem(4 bytes @ 0x40009030)
T1444 1579:156.677   Data:  18 90 03 40
T1444 1579:156.743 - 0.608ms returns 4 (0x4)
T1444 1579:156.758 JLINK_ReadMemEx(0x40009038, 0x4 Bytes, Flags = 0x02000004)
T1444 1579:156.768   CPU_ReadMem(4 bytes @ 0x40009038)
T1444 1579:157.393   Data:  00 00 00 00
T1444 1579:157.407 - 0.652ms returns 4 (0x4)
T1444 1579:157.420 JLINK_ReadMemEx(0x40009038, 0x4 Bytes, Flags = 0x02000004)
T1444 1579:157.429   CPU_ReadMem(4 bytes @ 0x40009038)
T1444 1579:158.001   Data:  00 00 00 00
T1444 1579:158.064 - 0.648ms returns 4 (0x4)
T1444 1579:158.080 JLINK_ReadMemEx(0x40009040, 0x4 Bytes, Flags = 0x02000004)
T1444 1579:158.090   CPU_ReadMem(4 bytes @ 0x40009040)
T1444 1579:158.627   Data:  98 D8 FF 1F
T1444 1579:158.699 - 0.623ms returns 4 (0x4)
T1444 1579:158.712 JLINK_ReadMemEx(0x40009040, 0x4 Bytes, Flags = 0x02000004)
T1444 1579:158.722   CPU_ReadMem(4 bytes @ 0x40009040)
T1444 1579:159.191   Data:  98 D8 FF 1F
T1444 1579:159.205 - 0.495ms returns 4 (0x4)
T1444 1579:159.220 JLINK_ReadMemEx(0x40009048, 0x8 Bytes, Flags = 0x02000004)
T1444 1579:159.232   CPU_ReadMem(8 bytes @ 0x40009048)
T1444 1579:159.915   Data:  02 00 00 00 60 F0 FF FF
T1444 1579:159.930 - 0.714ms returns 8 (0x8)
T1444 1579:159.944 JLINK_ReadMemEx(0x40009048, 0x4 Bytes, Flags = 0x02000004)
T1444 1579:159.955   CPU_ReadMem(4 bytes @ 0x40009048)
T1444 1579:160.493   Data:  02 00 00 00
T1444 1579:160.509 - 0.568ms returns 4 (0x4)
T1444 1579:160.523 JLINK_ReadMemEx(0x4000904C, 0x4 Bytes, Flags = 0x02000004)
T1444 1579:160.533   CPU_ReadMem(4 bytes @ 0x4000904C)
T1444 1579:161.087   Data:  60 F0 FF FF
T1444 1579:161.103 - 0.583ms returns 4 (0x4)
T1444 1579:161.117 JLINK_ReadMemEx(0x40009050, 0x4 Bytes, Flags = 0x02000004)
T1444 1579:161.127   CPU_ReadMem(4 bytes @ 0x40009050)
T1444 1579:161.807   Data:  48 90 03 40
T1444 1579:161.823 - 0.709ms returns 4 (0x4)
T1444 1579:161.837 JLINK_ReadMemEx(0x40009050, 0x4 Bytes, Flags = 0x02000004)
T1444 1579:161.847   CPU_ReadMem(4 bytes @ 0x40009050)
T1444 1579:162.359   Data:  48 90 03 40
T1444 1579:162.375 - 0.541ms returns 4 (0x4)
T1444 1579:162.391 JLINK_ReadMemEx(0x40009058, 0x4 Bytes, Flags = 0x02000004)
T1444 1579:162.402   CPU_ReadMem(4 bytes @ 0x40009058)
T1444 1579:162.982   Data:  00 00 00 00
T1444 1579:162.997 - 0.610ms returns 4 (0x4)
T1444 1579:163.012 JLINK_ReadMemEx(0x40009058, 0x4 Bytes, Flags = 0x02000004)
T1444 1579:163.023   CPU_ReadMem(4 bytes @ 0x40009058)
T1444 1579:163.673   Data:  00 00 00 00
T1444 1579:163.689 - 0.680ms returns 4 (0x4)
T1444 1579:163.706 JLINK_ReadMemEx(0x40009060, 0x4 Bytes, Flags = 0x02000004)
T1444 1579:163.717   CPU_ReadMem(4 bytes @ 0x40009060)
T1444 1579:164.228   Data:  42 E8 FF 1F
T1444 1579:164.243 - 0.541ms returns 4 (0x4)
T1444 1579:164.257 JLINK_ReadMemEx(0x40009060, 0x4 Bytes, Flags = 0x02000004)
T1444 1579:164.268   CPU_ReadMem(4 bytes @ 0x40009060)
T1444 1579:164.802   Data:  42 E8 FF 1F
T1444 1579:164.817 - 0.563ms returns 4 (0x4)
T1444 1579:164.834 JLINK_ReadMemEx(0x40009068, 0x8 Bytes, Flags = 0x02000004)
T1444 1579:164.845   CPU_ReadMem(8 bytes @ 0x40009068)
T1444 1579:165.422   Data:  02 00 00 00 60 F0 FF FF
T1444 1579:165.438 - 0.607ms returns 8 (0x8)
T1444 1579:165.451 JLINK_ReadMemEx(0x40009068, 0x4 Bytes, Flags = 0x02000004)
T1444 1579:165.462   CPU_ReadMem(4 bytes @ 0x40009068)
T1444 1579:166.057   Data:  02 00 00 00
T1444 1579:166.080 - 0.632ms returns 4 (0x4)
T1444 1579:166.094 JLINK_ReadMemEx(0x4000906C, 0x4 Bytes, Flags = 0x02000004)
T1444 1579:166.105   CPU_ReadMem(4 bytes @ 0x4000906C)
T1444 1579:166.713   Data:  60 F0 FF FF
T1444 1579:166.729 - 0.638ms returns 4 (0x4)
T1444 1579:166.743 JLINK_ReadMemEx(0x40009070, 0x4 Bytes, Flags = 0x02000004)
T1444 1579:166.754   CPU_ReadMem(4 bytes @ 0x40009070)
T1444 1579:167.252   Data:  38 90 03 40
T1444 1579:167.266 - 0.526ms returns 4 (0x4)
T1444 1579:167.279 JLINK_ReadMemEx(0x40009070, 0x4 Bytes, Flags = 0x02000004)
T1444 1579:167.289   CPU_ReadMem(4 bytes @ 0x40009070)
T1444 1579:167.851   Data:  38 90 03 40
T1444 1579:167.865 - 0.589ms returns 4 (0x4)
T1444 1579:167.881 JLINK_ReadMemEx(0x40009078, 0x4 Bytes, Flags = 0x02000004)
T1444 1579:167.891   CPU_ReadMem(4 bytes @ 0x40009078)
T1444 1579:168.587   Data:  00 00 00 00
T1444 1579:168.601 - 0.724ms returns 4 (0x4)
T1444 1579:168.614 JLINK_ReadMemEx(0x40009078, 0x4 Bytes, Flags = 0x02000004)
T1444 1579:168.624   CPU_ReadMem(4 bytes @ 0x40009078)
T1444 1579:169.114   Data:  00 00 00 00
T1444 1579:169.128 - 0.516ms returns 4 (0x4)
T1444 1579:169.143 JLINK_ReadMemEx(0x40009080, 0x4 Bytes, Flags = 0x02000004)
T1444 1579:169.153   CPU_ReadMem(4 bytes @ 0x40009080)
T1444 1579:169.728   Data:  22 02 62 44
T1444 1579:169.742 - 0.603ms returns 4 (0x4)
T1444 1579:169.755 JLINK_ReadMemEx(0x40009080, 0x4 Bytes, Flags = 0x02000004)
T1444 1579:169.765   CPU_ReadMem(4 bytes @ 0x40009080)
T1444 1579:170.381   Data:  22 02 62 44
T1444 1579:170.395 - 0.643ms returns 4 (0x4)
T1444 1579:170.410 JLINK_ReadMemEx(0x40009088, 0x8 Bytes, Flags = 0x02000004)
T1444 1579:170.420   CPU_ReadMem(8 bytes @ 0x40009088)
T1444 1579:171.068   Data:  E1 6D 53 38 80 DB 21 6F
T1444 1579:171.082 - 0.674ms returns 8 (0x8)
T1444 1579:171.094 JLINK_ReadMemEx(0x40009088, 0x4 Bytes, Flags = 0x02000004)
T1444 1579:171.104   CPU_ReadMem(4 bytes @ 0x40009088)
T1444 1579:171.682   Data:  E1 6D 53 38
T1444 1579:171.696 - 0.604ms returns 4 (0x4)
T1444 1579:171.708 JLINK_ReadMemEx(0x4000908C, 0x4 Bytes, Flags = 0x02000004)
T1444 1579:171.718   CPU_ReadMem(4 bytes @ 0x4000908C)
T1444 1579:172.213   Data:  80 DB 21 6F
T1444 1579:172.227 - 0.522ms returns 4 (0x4)
T1444 1579:172.240 JLINK_ReadMemEx(0x40009090, 0x4 Bytes, Flags = 0x02000004)
T1444 1579:172.250   CPU_ReadMem(4 bytes @ 0x40009090)
T1444 1579:172.740   Data:  C8 57 B8 02
T1444 1579:172.754 - 0.517ms returns 4 (0x4)
T1444 1579:172.766 JLINK_ReadMemEx(0x40009090, 0x4 Bytes, Flags = 0x02000004)
T1444 1579:172.776   CPU_ReadMem(4 bytes @ 0x40009090)
T1444 1579:173.307   Data:  C8 57 B8 02
T1444 1579:173.321 - 0.557ms returns 4 (0x4)
T1444 1579:173.336 JLINK_ReadMemEx(0x40009098, 0x4 Bytes, Flags = 0x02000004)
T1444 1579:173.346   CPU_ReadMem(4 bytes @ 0x40009098)
T1444 1579:173.924   Data:  71 23 A0 42
T1444 1579:173.938 - 0.605ms returns 4 (0x4)
T1444 1579:173.951 JLINK_ReadMemEx(0x40009098, 0x4 Bytes, Flags = 0x02000004)
T1444 1579:173.960   CPU_ReadMem(4 bytes @ 0x40009098)
T1444 1579:174.518   Data:  71 23 A0 42
T1444 1579:174.532 - 0.585ms returns 4 (0x4)
T1444 1579:174.547 JLINK_ReadMemEx(0x400090A0, 0x4 Bytes, Flags = 0x02000004)
T1444 1579:174.557   CPU_ReadMem(4 bytes @ 0x400090A0)
T1444 1579:175.086   Data:  16 B4 49 4A
T1444 1579:175.100 - 0.556ms returns 4 (0x4)
T1444 1579:175.113 JLINK_ReadMemEx(0x400090A0, 0x4 Bytes, Flags = 0x02000004)
T1444 1579:175.122   CPU_ReadMem(4 bytes @ 0x400090A0)
T1444 1579:175.665   Data:  16 B4 49 4A
T1444 1579:175.679 - 0.570ms returns 4 (0x4)
T1444 1579:175.695 JLINK_ReadMemEx(0x400090A8, 0x8 Bytes, Flags = 0x02000004)
T1444 1579:175.704   CPU_ReadMem(8 bytes @ 0x400090A8)
T1444 1579:176.255   Data:  94 9E 1F A9 79 CB CC 70
T1444 1579:176.268 - 0.577ms returns 8 (0x8)
T1444 1579:176.281 JLINK_ReadMemEx(0x400090A8, 0x4 Bytes, Flags = 0x02000004)
T1444 1579:176.291   CPU_ReadMem(4 bytes @ 0x400090A8)
T1444 1579:176.844   Data:  94 9E 1F A9
T1444 1579:176.858 - 0.580ms returns 4 (0x4)
T1444 1579:176.871 JLINK_ReadMemEx(0x400090AC, 0x4 Bytes, Flags = 0x02000004)
T1444 1579:176.881   CPU_ReadMem(4 bytes @ 0x400090AC)
T1444 1579:177.548   Data:  79 CB CC 70
T1444 1579:177.562 - 0.694ms returns 4 (0x4)
T1444 1579:177.575 JLINK_ReadMemEx(0x400090B0, 0x4 Bytes, Flags = 0x02000004)
T1444 1579:177.584   CPU_ReadMem(4 bytes @ 0x400090B0)
T1444 1579:178.037   Data:  A7 1D 91 A9
T1444 1579:178.051 - 0.480ms returns 4 (0x4)
T1444 1579:178.064 JLINK_ReadMemEx(0x400090B0, 0x4 Bytes, Flags = 0x02000004)
T1444 1579:178.075   CPU_ReadMem(4 bytes @ 0x400090B0)
T1444 1579:178.614   Data:  A7 1D 91 A9
T1444 1579:178.628 - 0.568ms returns 4 (0x4)
T1444 1579:178.643 JLINK_ReadMemEx(0x400090B8, 0x4 Bytes, Flags = 0x02000004)
T1444 1579:178.653   CPU_ReadMem(4 bytes @ 0x400090B8)
T1444 1579:179.240   Data:  1C 34 F7 4E
T1444 1579:179.254 - 0.614ms returns 4 (0x4)
T1444 1579:179.267 JLINK_ReadMemEx(0x400090B8, 0x4 Bytes, Flags = 0x02000004)
T1444 1579:179.277   CPU_ReadMem(4 bytes @ 0x400090B8)
T1444 1579:179.817   Data:  1C 34 F7 4E
T1444 1579:179.830 - 0.567ms returns 4 (0x4)
T1444 1579:179.846 JLINK_ReadMemEx(0x400090C0, 0x4 Bytes, Flags = 0x02000004)
T1444 1579:179.855   CPU_ReadMem(4 bytes @ 0x400090C0)
T1444 1579:180.588   Data:  CD 6F 01 CA
T1444 1579:180.602 - 0.759ms returns 4 (0x4)
T1444 1579:180.615 JLINK_ReadMemEx(0x400090C0, 0x4 Bytes, Flags = 0x02000004)
T1444 1579:180.624   CPU_ReadMem(4 bytes @ 0x400090C0)
T1444 1579:181.486   Data:  CD 6F 01 CA
T1444 1579:181.500 - 0.889ms returns 4 (0x4)
T1444 1579:181.515 JLINK_ReadMemEx(0x400090C8, 0x8 Bytes, Flags = 0x02000004)
T1444 1579:181.525   CPU_ReadMem(8 bytes @ 0x400090C8)
T1444 1579:182.289   Data:  B1 BE 44 E0 94 97 AB 8E
T1444 1579:182.311 - 0.850ms returns 8 (0x8)
T1444 1579:182.379 JLINK_ReadMemEx(0x400090C8, 0x4 Bytes, Flags = 0x02000004)
T1444 1579:182.390   CPU_ReadMem(4 bytes @ 0x400090C8)
T1444 1579:182.936   Data:  B1 BE 44 E0
T1444 1579:182.954 - 0.578ms returns 4 (0x4)
T1444 1579:182.968 JLINK_ReadMemEx(0x400090CC, 0x4 Bytes, Flags = 0x02000004)
T1444 1579:182.980   CPU_ReadMem(4 bytes @ 0x400090CC)
T1444 1579:183.492   Data:  94 97 AB 8E
T1444 1579:183.507 - 0.541ms returns 4 (0x4)
T1444 1579:183.520 JLINK_ReadMemEx(0x400090D0, 0x4 Bytes, Flags = 0x02000004)
T1444 1579:183.529   CPU_ReadMem(4 bytes @ 0x400090D0)
T1444 1579:184.002   Data:  87 1A 0D 1D
T1444 1579:184.016 - 0.500ms returns 4 (0x4)
T1444 1579:184.029 JLINK_ReadMemEx(0x400090D0, 0x4 Bytes, Flags = 0x02000004)
T1444 1579:184.039   CPU_ReadMem(4 bytes @ 0x400090D0)
T1444 1579:184.483   Data:  87 1A 0D 1D
T1444 1579:184.497 - 0.471ms returns 4 (0x4)
T1444 1579:184.513 JLINK_ReadMemEx(0x400090D8, 0x4 Bytes, Flags = 0x02000004)
T1444 1579:184.522   CPU_ReadMem(4 bytes @ 0x400090D8)
T1444 1579:184.967   Data:  32 60 D1 A6
T1444 1579:184.981 - 0.471ms returns 4 (0x4)
T1444 1579:184.993 JLINK_ReadMemEx(0x400090D8, 0x4 Bytes, Flags = 0x02000004)
T1444 1579:185.003   CPU_ReadMem(4 bytes @ 0x400090D8)
T1444 1579:185.459   Data:  32 60 D1 A6
T1444 1579:185.473 - 0.483ms returns 4 (0x4)
T1444 1579:185.488 JLINK_ReadMemEx(0x400090E0, 0x4 Bytes, Flags = 0x02000004)
T1444 1579:185.498   CPU_ReadMem(4 bytes @ 0x400090E0)
T1444 1579:185.937   Data:  42 6F B2 47
T1444 1579:185.960 - 0.476ms returns 4 (0x4)
T1444 1579:185.974 JLINK_ReadMemEx(0x400090E0, 0x4 Bytes, Flags = 0x02000004)
T1444 1579:185.984   CPU_ReadMem(4 bytes @ 0x400090E0)
T1444 1579:186.433   Data:  42 6F B2 47
T1444 1579:186.447 - 0.477ms returns 4 (0x4)
T1444 1579:186.463 JLINK_ReadMemEx(0x400090E8, 0x8 Bytes, Flags = 0x02000004)
T1444 1579:186.472   CPU_ReadMem(8 bytes @ 0x400090E8)
T1444 1579:186.989   Data:  2D C3 C1 A2 C4 ED 46 DF
T1444 1579:187.002 - 0.543ms returns 8 (0x8)
T1444 1579:187.015 JLINK_ReadMemEx(0x400090E8, 0x4 Bytes, Flags = 0x02000004)
T1444 1579:187.025   CPU_ReadMem(4 bytes @ 0x400090E8)
T1444 1579:187.470   Data:  2D C3 C1 A2
T1444 1579:187.483 - 0.472ms returns 4 (0x4)
T1444 1579:187.496 JLINK_ReadMemEx(0x400090EC, 0x4 Bytes, Flags = 0x02000004)
T1444 1579:187.506   CPU_ReadMem(4 bytes @ 0x400090EC)
T1444 1579:187.946   Data:  C4 ED 46 DF
T1444 1579:187.960 - 0.467ms returns 4 (0x4)
T1444 1579:187.973 JLINK_ReadMemEx(0x400090F0, 0x4 Bytes, Flags = 0x02000004)
T1444 1579:187.983   CPU_ReadMem(4 bytes @ 0x400090F0)
T1444 1579:188.427   Data:  3F 38 3E B0
T1444 1579:188.441 - 0.471ms returns 4 (0x4)
T1444 1579:188.454 JLINK_ReadMemEx(0x400090F0, 0x4 Bytes, Flags = 0x02000004)
T1444 1579:188.464   CPU_ReadMem(4 bytes @ 0x400090F0)
T1444 1579:188.938   Data:  3F 38 3E B0
T1444 1579:188.952 - 0.501ms returns 4 (0x4)
T1444 1579:188.967 JLINK_ReadMemEx(0x400090F8, 0x4 Bytes, Flags = 0x02000004)
T1444 1579:188.977   CPU_ReadMem(4 bytes @ 0x400090F8)
T1444 1579:189.420   Data:  7B 0C C5 97
T1444 1579:189.434 - 0.470ms returns 4 (0x4)
T1444 1579:189.447 JLINK_ReadMemEx(0x400090F8, 0x4 Bytes, Flags = 0x02000004)
T1444 1579:189.456   CPU_ReadMem(4 bytes @ 0x400090F8)
T1444 1579:189.938   Data:  7B 0C C5 97
T1444 1579:189.953 - 0.509ms returns 4 (0x4)
T1444 1579:189.968 JLINK_ReadMemEx(0x40009100, 0x4 Bytes, Flags = 0x02000004)
T1444 1579:189.978   CPU_ReadMem(4 bytes @ 0x40009100)
T1444 1579:190.421   Data:  4E EB D4 16
T1444 1579:190.435 - 0.470ms returns 4 (0x4)
T1444 1579:190.448 JLINK_ReadMemEx(0x40009100, 0x4 Bytes, Flags = 0x02000004)
T1444 1579:190.457   CPU_ReadMem(4 bytes @ 0x40009100)
T1444 1579:190.938   Data:  4E EB D4 16
T1444 1579:190.952 - 0.507ms returns 4 (0x4)
T1444 1579:190.967 JLINK_ReadMemEx(0x40009108, 0x8 Bytes, Flags = 0x02000004)
T1444 1579:190.977   CPU_ReadMem(8 bytes @ 0x40009108)
T1444 1579:191.468   Data:  BA CF 0D 3C 9D C4 98 CE
T1444 1579:191.482 - 0.518ms returns 8 (0x8)
T1444 1579:191.495 JLINK_ReadMemEx(0x40009108, 0x4 Bytes, Flags = 0x02000004)
T1444 1579:191.506   CPU_ReadMem(4 bytes @ 0x40009108)
T1444 1579:191.954   Data:  BA CF 0D 3C
T1444 1579:191.968 - 0.476ms returns 4 (0x4)
T1444 1579:191.981 JLINK_ReadMemEx(0x4000910C, 0x4 Bytes, Flags = 0x02000004)
T1444 1579:191.991   CPU_ReadMem(4 bytes @ 0x4000910C)
T1444 1579:192.485   Data:  9D C4 98 CE
T1444 1579:192.499 - 0.521ms returns 4 (0x4)
T1444 1579:192.512 JLINK_ReadMemEx(0x40009110, 0x4 Bytes, Flags = 0x02000004)
T1444 1579:192.522   CPU_ReadMem(4 bytes @ 0x40009110)
T1444 1579:192.964   Data:  5F F7 19 B9
T1444 1579:192.978 - 0.470ms returns 4 (0x4)
T1444 1579:192.991 JLINK_ReadMemEx(0x40009110, 0x4 Bytes, Flags = 0x02000004)
T1444 1579:193.001   CPU_ReadMem(4 bytes @ 0x40009110)
T1444 1579:193.459   Data:  5F F7 19 B9
T1444 1579:193.473 - 0.485ms returns 4 (0x4)
T1444 1579:193.488 JLINK_ReadMemEx(0x40009118, 0x4 Bytes, Flags = 0x02000004)
T1444 1579:193.498   CPU_ReadMem(4 bytes @ 0x40009118)
T1444 1579:193.937   Data:  BF 0B 6B 0A
T1444 1579:193.954 - 0.470ms returns 4 (0x4)
T1444 1579:193.970 JLINK_ReadMemEx(0x40009118, 0x4 Bytes, Flags = 0x02000004)
T1444 1579:193.988   CPU_ReadMem(4 bytes @ 0x40009118)
T1444 1579:194.561   Data:  BF 0B 6B 0A
T1444 1579:194.575 - 0.609ms returns 4 (0x4)
T1444 1579:194.591 JLINK_ReadMemEx(0x40009120, 0x4 Bytes, Flags = 0x02000004)
T1444 1579:194.600   CPU_ReadMem(4 bytes @ 0x40009120)
T1444 1579:195.044   Data:  60 2E 6C B5
T1444 1579:195.058 - 0.471ms returns 4 (0x4)
T1444 1579:195.071 JLINK_ReadMemEx(0x40009120, 0x4 Bytes, Flags = 0x02000004)
T1444 1579:195.080   CPU_ReadMem(4 bytes @ 0x40009120)
T1444 1579:195.562   Data:  60 2E 6C B5
T1444 1579:195.576 - 0.508ms returns 4 (0x4)
T1444 1579:195.591 JLINK_ReadMemEx(0x40009128, 0x8 Bytes, Flags = 0x02000004)
T1444 1579:195.601   CPU_ReadMem(8 bytes @ 0x40009128)
T1444 1579:196.098   Data:  0D F0 C0 74 A9 AC 88 80
T1444 1579:196.112 - 0.524ms returns 8 (0x8)
T1444 1579:196.125 JLINK_ReadMemEx(0x40009128, 0x4 Bytes, Flags = 0x02000004)
T1444 1579:196.134   CPU_ReadMem(4 bytes @ 0x40009128)
T1444 1579:196.617   Data:  0D F0 C0 74
T1444 1579:196.632 - 0.510ms returns 4 (0x4)
T1444 1579:196.644 JLINK_ReadMemEx(0x4000912C, 0x4 Bytes, Flags = 0x02000004)
T1444 1579:196.654   CPU_ReadMem(4 bytes @ 0x4000912C)
T1444 1579:197.183   Data:  A9 AC 88 80
T1444 1579:197.197 - 0.556ms returns 4 (0x4)
T1444 1579:197.210 JLINK_ReadMemEx(0x40009130, 0x4 Bytes, Flags = 0x02000004)
T1444 1579:197.220   CPU_ReadMem(4 bytes @ 0x40009130)
T1444 1579:197.666   Data:  10 29 B5 03
T1444 1579:197.680 - 0.473ms returns 4 (0x4)
T1444 1579:197.692 JLINK_ReadMemEx(0x40009130, 0x4 Bytes, Flags = 0x02000004)
T1444 1579:197.702   CPU_ReadMem(4 bytes @ 0x40009130)
T1444 1579:198.147   Data:  10 29 B5 03
T1444 1579:198.161 - 0.472ms returns 4 (0x4)
T1444 1579:198.176 JLINK_ReadMemEx(0x40009138, 0x4 Bytes, Flags = 0x02000004)
T1444 1579:198.186   CPU_ReadMem(4 bytes @ 0x40009138)
T1444 1579:198.687   Data:  07 23 5B C2
T1444 1579:198.701 - 0.528ms returns 4 (0x4)
T1444 1579:198.714 JLINK_ReadMemEx(0x40009138, 0x4 Bytes, Flags = 0x02000004)
T1444 1579:198.724   CPU_ReadMem(4 bytes @ 0x40009138)
T1444 1579:199.169   Data:  07 23 5B C2
T1444 1579:199.183 - 0.473ms returns 4 (0x4)
T1444 1579:199.199 JLINK_ReadMemEx(0x40009140, 0x4 Bytes, Flags = 0x02000004)
T1444 1579:199.209   CPU_ReadMem(4 bytes @ 0x40009140)
T1444 1579:199.711   Data:  4D 14 94 8E
T1444 1579:199.725 - 0.530ms returns 4 (0x4)
T1444 1579:199.738 JLINK_ReadMemEx(0x40009140, 0x4 Bytes, Flags = 0x02000004)
T1444 1579:199.748   CPU_ReadMem(4 bytes @ 0x40009140)
T1444 1579:200.309   Data:  4D 14 94 8E
T1444 1579:200.323 - 0.588ms returns 4 (0x4)
T1444 1579:200.339 JLINK_ReadMemEx(0x40009148, 0x8 Bytes, Flags = 0x02000004)
T1444 1579:200.348   CPU_ReadMem(8 bytes @ 0x40009148)
T1444 1579:200.890   Data:  1E 55 5E 2A 14 FA AC CF
T1444 1579:200.904 - 0.569ms returns 8 (0x8)
T1444 1579:200.917 JLINK_ReadMemEx(0x40009148, 0x4 Bytes, Flags = 0x02000004)
T1444 1579:200.926   CPU_ReadMem(4 bytes @ 0x40009148)
T1444 1579:201.385   Data:  1E 55 5E 2A
T1444 1579:201.400 - 0.487ms returns 4 (0x4)
T1444 1579:201.413 JLINK_ReadMemEx(0x4000914C, 0x4 Bytes, Flags = 0x02000004)
T1444 1579:201.422   CPU_ReadMem(4 bytes @ 0x4000914C)
T1444 1579:201.936   Data:  14 FA AC CF
T1444 1579:201.950 - 0.542ms returns 4 (0x4)
T1444 1579:201.965 JLINK_ReadMemEx(0x40009150, 0x4 Bytes, Flags = 0x02000004)
T1444 1579:201.974   CPU_ReadMem(4 bytes @ 0x40009150)
T1444 1579:202.461   Data:  0C 82 33 18
T1444 1579:202.476 - 0.515ms returns 4 (0x4)
T1444 1579:202.489 JLINK_ReadMemEx(0x40009150, 0x4 Bytes, Flags = 0x02000004)
T1444 1579:202.499   CPU_ReadMem(4 bytes @ 0x40009150)
T1444 1579:203.119   Data:  0C 82 33 18
T1444 1579:203.133 - 0.647ms returns 4 (0x4)
T1444 1579:203.317 JLINK_ReadMemEx(0x40009158, 0x4 Bytes, Flags = 0x02000004)
T1444 1579:203.330   CPU_ReadMem(4 bytes @ 0x40009158)
T1444 1579:203.788   Data:  1C D0 8F 0E
T1444 1579:203.802 - 0.488ms returns 4 (0x4)
T1444 1579:203.813 JLINK_ReadMemEx(0x40009158, 0x4 Bytes, Flags = 0x02000004)
T1444 1579:203.822   CPU_ReadMem(4 bytes @ 0x40009158)
T1444 1579:204.262   Data:  1C D0 8F 0E
T1444 1579:204.276 - 0.467ms returns 4 (0x4)
T1444 1579:204.292 JLINK_ReadMemEx(0x40009160, 0x4 Bytes, Flags = 0x02000004)
T1444 1579:204.302   CPU_ReadMem(4 bytes @ 0x40009160)
T1444 1579:204.736   Data:  F9 9E 24 88
T1444 1579:204.750 - 0.461ms returns 4 (0x4)
T1444 1579:204.763 JLINK_ReadMemEx(0x40009160, 0x4 Bytes, Flags = 0x02000004)
T1444 1579:204.773   CPU_ReadMem(4 bytes @ 0x40009160)
T1444 1579:205.311   Data:  F9 9E 24 88
T1444 1579:205.325 - 0.566ms returns 4 (0x4)
T1444 1579:205.341 JLINK_ReadMemEx(0x40009168, 0x8 Bytes, Flags = 0x02000004)
T1444 1579:205.351   CPU_ReadMem(8 bytes @ 0x40009168)
T1444 1579:205.839   Data:  BE 72 18 8F 6B C3 9B BF
T1444 1579:205.852 - 0.515ms returns 8 (0x8)
T1444 1579:205.865 JLINK_ReadMemEx(0x40009168, 0x4 Bytes, Flags = 0x02000004)
T1444 1579:205.875   CPU_ReadMem(4 bytes @ 0x40009168)
T1444 1579:206.334   Data:  BE 72 18 8F
T1444 1579:206.348 - 0.486ms returns 4 (0x4)
T1444 1579:206.361 JLINK_ReadMemEx(0x4000916C, 0x4 Bytes, Flags = 0x02000004)
T1444 1579:206.370   CPU_ReadMem(4 bytes @ 0x4000916C)
T1444 1579:206.811   Data:  6B C3 9B BF
T1444 1579:206.825 - 0.468ms returns 4 (0x4)
T1444 1579:206.838 JLINK_ReadMemEx(0x40009170, 0x4 Bytes, Flags = 0x02000004)
T1444 1579:206.848   CPU_ReadMem(4 bytes @ 0x40009170)
T1444 1579:207.293   Data:  1B 09 C4 04
T1444 1579:207.307 - 0.472ms returns 4 (0x4)
T1444 1579:207.320 JLINK_ReadMemEx(0x40009170, 0x4 Bytes, Flags = 0x02000004)
T1444 1579:207.330   CPU_ReadMem(4 bytes @ 0x40009170)
T1444 1579:207.791   Data:  1B 09 C4 04
T1444 1579:207.805 - 0.488ms returns 4 (0x4)
T1444 1579:207.821 JLINK_ReadMemEx(0x40009178, 0x4 Bytes, Flags = 0x02000004)
T1444 1579:207.830   CPU_ReadMem(4 bytes @ 0x40009178)
T1444 1579:208.273   Data:  65 20 10 E3
T1444 1579:208.287 - 0.470ms returns 4 (0x4)
T1444 1579:208.300 JLINK_ReadMemEx(0x40009178, 0x4 Bytes, Flags = 0x02000004)
T1444 1579:208.310   CPU_ReadMem(4 bytes @ 0x40009178)
T1444 1579:208.762   Data:  65 20 10 E3
T1444 1579:208.776 - 0.479ms returns 4 (0x4)
T1444 1579:208.953 JLINK_ReadMemEx(0x40009180, 0x4 Bytes, Flags = 0x02000004)
T1444 1579:208.971   CPU_ReadMem(4 bytes @ 0x40009180)
T1444 1579:209.427   Data:  80 A2 05 40
T1444 1579:209.442 - 0.492ms returns 4 (0x4)
T1444 1579:209.453 JLINK_ReadMemEx(0x40009180, 0x4 Bytes, Flags = 0x02000004)
T1444 1579:209.463   CPU_ReadMem(4 bytes @ 0x40009180)
T1444 1579:209.942   Data:  80 A2 05 40
T1444 1579:209.957 - 0.507ms returns 4 (0x4)
T1444 1579:209.970 JLINK_ReadMemEx(0x40009188, 0x8 Bytes, Flags = 0x02000004)
T1444 1579:209.980   CPU_ReadMem(8 bytes @ 0x40009188)
T1444 1579:210.515   Data:  04 00 00 00 00 00 00 00
T1444 1579:210.528 - 0.561ms returns 8 (0x8)
T1444 1579:210.540 JLINK_ReadMemEx(0x40009188, 0x4 Bytes, Flags = 0x02000004)
T1444 1579:210.549   CPU_ReadMem(4 bytes @ 0x40009188)
T1444 1579:211.027   Data:  04 00 00 00
T1444 1579:211.041 - 0.506ms returns 4 (0x4)
T1444 1579:211.057 JLINK_ReadMemEx(0x4000918C, 0x4 Bytes, Flags = 0x02000004)
T1444 1579:211.067   CPU_ReadMem(4 bytes @ 0x4000918C)
T1444 1579:211.600   Data:  00 00 00 00
T1444 1579:211.614 - 0.561ms returns 4 (0x4)
T1444 1579:211.627 JLINK_ReadMemEx(0x40009190, 0x4 Bytes, Flags = 0x02000004)
T1444 1579:211.637   CPU_ReadMem(4 bytes @ 0x40009190)
T1444 1579:212.112   Data:  00 80 FF 1F
T1444 1579:212.126 - 0.502ms returns 4 (0x4)
T1444 1579:212.139 JLINK_ReadMemEx(0x40009190, 0x4 Bytes, Flags = 0x02000004)
T1444 1579:212.149   CPU_ReadMem(4 bytes @ 0x40009190)
T1444 1579:212.638   Data:  00 80 FF 1F
T1444 1579:212.652 - 0.516ms returns 4 (0x4)
T1444 1579:212.667 JLINK_ReadMemEx(0x40009198, 0x4 Bytes, Flags = 0x02000004)
T1444 1579:212.677   CPU_ReadMem(4 bytes @ 0x40009198)
T1444 1579:213.215   Data:  60 F0 FF FF
T1444 1579:213.229 - 0.565ms returns 4 (0x4)
T1444 1579:213.242 JLINK_ReadMemEx(0x40009198, 0x4 Bytes, Flags = 0x02000004)
T1444 1579:213.252   CPU_ReadMem(4 bytes @ 0x40009198)
T1444 1579:213.738   Data:  60 F0 FF FF
T1444 1579:213.752 - 0.513ms returns 4 (0x4)
T1444 1579:213.767 JLINK_ReadMemEx(0x400091A0, 0x4 Bytes, Flags = 0x02000004)
T1444 1579:213.777   CPU_ReadMem(4 bytes @ 0x400091A0)
T1444 1579:214.240   Data:  68 3B 86 9A
T1444 1579:214.254 - 0.490ms returns 4 (0x4)
T1444 1579:214.266 JLINK_ReadMemEx(0x400091A0, 0x4 Bytes, Flags = 0x02000004)
T1444 1579:214.276   CPU_ReadMem(4 bytes @ 0x400091A0)
T1444 1579:214.737   Data:  68 3B 86 9A
T1444 1579:214.751 - 0.488ms returns 4 (0x4)
T1444 1579:214.766 JLINK_ReadMemEx(0x400091A8, 0x8 Bytes, Flags = 0x02000004)
T1444 1579:214.776   CPU_ReadMem(8 bytes @ 0x400091A8)
T1444 1579:215.292   Data:  D6 16 51 E5 C8 10 2D B0
T1444 1579:215.306 - 0.543ms returns 8 (0x8)
T1444 1579:215.319 JLINK_ReadMemEx(0x400091A8, 0x4 Bytes, Flags = 0x02000004)
T1444 1579:215.329   CPU_ReadMem(4 bytes @ 0x400091A8)
T1444 1579:215.816   Data:  D6 16 51 E5
T1444 1579:215.830 - 0.514ms returns 4 (0x4)
T1444 1579:215.843 JLINK_ReadMemEx(0x400091AC, 0x4 Bytes, Flags = 0x02000004)
T1444 1579:215.853   CPU_ReadMem(4 bytes @ 0x400091AC)
T1444 1579:216.360   Data:  C8 10 2D B0
T1444 1579:216.373 - 0.534ms returns 4 (0x4)
T1444 1579:216.387 JLINK_ReadMemEx(0x400091B0, 0x4 Bytes, Flags = 0x02000004)
T1444 1579:216.396   CPU_ReadMem(4 bytes @ 0x400091B0)
T1444 1579:216.864   Data:  6F F1 21 04
T1444 1579:216.878 - 0.494ms returns 4 (0x4)
T1444 1579:216.891 JLINK_ReadMemEx(0x400091B0, 0x4 Bytes, Flags = 0x02000004)
T1444 1579:216.900   CPU_ReadMem(4 bytes @ 0x400091B0)
T1444 1579:217.384   Data:  6F F1 21 04
T1444 1579:217.398 - 0.511ms returns 4 (0x4)
T1444 1579:217.670 JLINK_ReadMemEx(0x400091B8, 0x4 Bytes, Flags = 0x02000004)
T1444 1579:217.684   CPU_ReadMem(4 bytes @ 0x400091B8)
T1444 1579:218.129   Data:  4F 85 50 2F
T1444 1579:218.143 - 0.476ms returns 4 (0x4)
T1444 1579:218.154 JLINK_ReadMemEx(0x400091B8, 0x4 Bytes, Flags = 0x02000004)
T1444 1579:218.163   CPU_ReadMem(4 bytes @ 0x400091B8)
T1444 1579:218.636   Data:  4F 85 50 2F
T1444 1579:218.650 - 0.500ms returns 4 (0x4)
T1444 1579:218.664 JLINK_ReadMemEx(0x400091C0, 0x4 Bytes, Flags = 0x02000004)
T1444 1579:218.674   CPU_ReadMem(4 bytes @ 0x400091C0)
T1444 1579:219.119   Data:  2C 0E 50 E4
T1444 1579:219.133 - 0.472ms returns 4 (0x4)
T1444 1579:219.146 JLINK_ReadMemEx(0x400091C0, 0x4 Bytes, Flags = 0x02000004)
T1444 1579:219.155   CPU_ReadMem(4 bytes @ 0x400091C0)
T1444 1579:219.611   Data:  2C 0E 50 E4
T1444 1579:219.625 - 0.482ms returns 4 (0x4)
T1444 1579:219.640 JLINK_ReadMemEx(0x400091C8, 0x8 Bytes, Flags = 0x02000004)
T1444 1579:219.650   CPU_ReadMem(8 bytes @ 0x400091C8)
T1444 1579:220.240   Data:  63 06 B4 29 6F 5F BB A3
T1444 1579:220.254 - 0.617ms returns 8 (0x8)
T1444 1579:220.267 JLINK_ReadMemEx(0x400091C8, 0x4 Bytes, Flags = 0x02000004)
T1444 1579:220.277   CPU_ReadMem(4 bytes @ 0x400091C8)
T1444 1579:220.738   Data:  63 06 B4 29
T1444 1579:220.753 - 0.489ms returns 4 (0x4)
T1444 1579:220.766 JLINK_ReadMemEx(0x400091CC, 0x4 Bytes, Flags = 0x02000004)
T1444 1579:220.777   CPU_ReadMem(4 bytes @ 0x400091CC)
T1444 1579:221.315   Data:  6F 5F BB A3
T1444 1579:221.329 - 0.566ms returns 4 (0x4)
T1444 1579:221.342 JLINK_ReadMemEx(0x400091D0, 0x4 Bytes, Flags = 0x02000004)
T1444 1579:221.351   CPU_ReadMem(4 bytes @ 0x400091D0)
T1444 1579:221.811   Data:  9F 35 03 FC
T1444 1579:221.825 - 0.486ms returns 4 (0x4)
T1444 1579:221.838 JLINK_ReadMemEx(0x400091D0, 0x4 Bytes, Flags = 0x02000004)
T1444 1579:221.847   CPU_ReadMem(4 bytes @ 0x400091D0)
T1444 1579:222.301   Data:  9F 35 03 FC
T1444 1579:222.315 - 0.481ms returns 4 (0x4)
T1444 1579:222.331 JLINK_ReadMemEx(0x400091D8, 0x4 Bytes, Flags = 0x02000004)
T1444 1579:222.341   CPU_ReadMem(4 bytes @ 0x400091D8)
T1444 1579:222.790   Data:  FB 94 A0 90
T1444 1579:222.804 - 0.476ms returns 4 (0x4)
T1444 1579:222.817 JLINK_ReadMemEx(0x400091D8, 0x4 Bytes, Flags = 0x02000004)
T1444 1579:222.827   CPU_ReadMem(4 bytes @ 0x400091D8)
T1444 1579:223.267   Data:  FB 94 A0 90
T1444 1579:223.281 - 0.467ms returns 4 (0x4)
T1444 1579:223.297 JLINK_ReadMemEx(0x400091E0, 0x4 Bytes, Flags = 0x02000004)
T1444 1579:223.306   CPU_ReadMem(4 bytes @ 0x400091E0)
T1444 1579:223.762   Data:  80 40 02 40
T1444 1579:223.776 - 0.482ms returns 4 (0x4)
T1444 1579:223.789 JLINK_ReadMemEx(0x400091E0, 0x4 Bytes, Flags = 0x02000004)
T1444 1579:223.799   CPU_ReadMem(4 bytes @ 0x400091E0)
T1444 1579:224.237   Data:  80 40 02 40
T1444 1579:224.251 - 0.465ms returns 4 (0x4)
T1444 1579:224.266 JLINK_ReadMemEx(0x400091E8, 0x8 Bytes, Flags = 0x02000004)
T1444 1579:224.276   CPU_ReadMem(8 bytes @ 0x400091E8)
T1444 1579:224.866   Data:  10 C0 FF BF F0 FF FF FF
T1444 1579:224.880 - 0.617ms returns 8 (0x8)
